T2B04 000:004.118   SEGGER J-Link V7.82 Log File
T2B04 000:004.226   DLL Compiled: Oct 13 2022 13:32:51
T2B04 000:004.231   Logging started @ 2023-07-07 11:19
T2B04 000:004.236 - 4.239ms
T2B04 000:004.244 JLINK_SetWarnOutHandler(...)
T2B04 000:004.248 - 0.006ms
T2B04 000:004.253 JLINK_OpenEx(...)
T2B04 000:007.385   Firmware: J-Link V10 compiled Sep 22 2022 14:59:36
T2B04 000:008.223   Firmware: J-Link V10 compiled Sep 22 2022 14:59:36
T2B04 000:008.393   Decompressing FW timestamp took 135 us
T2B04 000:023.082   Hardware: V10.10
T2B04 000:023.111   S/N: 260117513
T2B04 000:023.118   OEM: SEGGER-EDU
T2B04 000:023.124   Feature(s): FlashBP, GDB
T2B04 000:028.700   TELNET listener socket opened on port 19021
T2B04 000:028.906   WEBSRV WEBSRV_Init(): Starting webserver thread(s)
T2B04 000:029.072   WEBSRV Webserver running on local port 19080
T2B04 000:046.740 - 42.504ms returns "O.K."
T2B04 000:046.774 JLINK_GetEmuCaps()
T2B04 000:046.780 - 0.008ms returns 0xB9FF7BBF
T2B04 000:046.799 JLINK_TIF_GetAvailable(...)
T2B04 000:047.370 - 0.581ms
T2B04 000:047.387 JLINK_SetErrorOutHandler(...)
T2B04 000:047.391 - 0.007ms
T2B04 000:047.409 JLINK_ExecCommand("ProjectFile = "C:\work\PL360\Microchip_board\thirdparty\g3\apps\adp_mac_serialized_app\samg55j19_pl360g55cf_ek_hybrid\keil\JLinkSettings.ini"", ...). 
T2B04 000:066.542 - 19.145ms returns 0x00
T2B04 000:068.348 JLINK_ExecCommand("Device = ATSAMG55J19", ...). 
T2B04 000:070.071   Device "ATSAMG55J19A" selected.
T2B04 000:070.401 - 2.042ms returns 0x00
T2B04 000:070.416 JLINK_ExecCommand("DisableConnectionTimeout", ...). 
T2B04 000:070.423 - 0.003ms returns 0x01
T2B04 000:070.429 JLINK_GetHardwareVersion()
T2B04 000:070.434 - 0.007ms returns 101000
T2B04 000:070.443 JLINK_GetDLLVersion()
T2B04 000:070.447 - 0.006ms returns 78200
T2B04 000:070.452 JLINK_GetOEMString(...)
T2B04 000:074.780 JLINK_GetDLLVersion()
T2B04 000:074.798 - 0.020ms returns 78200
T2B04 000:074.804 JLINK_GetCompileDateTime()
T2B04 000:074.808 - 0.005ms
T2B04 000:076.092 JLINK_GetFirmwareString(...)
T2B04 000:076.106 - 0.015ms
T2B04 000:077.398 JLINK_GetHardwareVersion()
T2B04 000:077.408 - 0.013ms returns 101000
T2B04 000:080.554 JLINK_GetSN()
T2B04 000:080.573 - 0.021ms returns 260117513
T2B04 000:082.091 JLINK_GetOEMString(...)
T2B04 000:086.095 JLINK_TIF_Select(JLINKARM_TIF_SWD)
T2B04 000:088.719 - 2.636ms returns 0x00
T2B04 000:088.736 JLINK_HasError()
T2B04 000:088.749 JLINK_SetSpeed(5000)
T2B04 000:089.424 - 0.685ms
T2B04 000:089.439 JLINK_GetId()
T2B04 000:090.292   Looking for J-Link GUI Server exe at: C:\KeilRepo\ARM\Segger\JLinkGUIServer.exe
T2B04 000:090.376   Looking for J-Link GUI Server exe at: \JLinkGUIServer.exe
T2B04 000:391.704   Failed to connect to J-Link GUI Server.
T2B04 002:930.762   Found SW-DP with ID 0x2BA01477
T2B04 002:937.326   DPIDR: 0x2BA01477
T2B04 002:938.751   CoreSight SoC-400 or earlier
T2B04 002:940.096   Scanning AP map to find all available APs
T2B04 002:943.475   AP[1]: Stopped AP scan as end of AP map has been reached
T2B04 002:946.916   AP[0]: AHB-AP (IDR: 0x24770011)
T2B04 002:948.337   Iterating through AP map to find AHB-AP to use
T2B04 002:951.202   AP[0]: Core found
T2B04 002:952.556   AP[0]: AHB-AP ROM base: 0xE00FF000
T2B04 002:954.896   CPUID register: 0x410FC241. Implementer code: 0x41 (ARM)
T2B04 002:956.203   Found Cortex-M4 r0p1, Little endian.
T2B04 002:957.334   -- Max. mem block: 0x00004598
T2B04 002:957.789   CPU_ReadMem(4 bytes @ 0xE000EDF0)
T2B04 002:958.381   CPU_WriteMem(4 bytes @ 0xE000EDF0)
T2B04 002:959.005   CPU_ReadMem(4 bytes @ 0xE0002000)
T2B04 002:963.419   FPUnit: 6 code (BP) slots and 2 literal slots
T2B04 002:963.447   CPU_ReadMem(4 bytes @ 0xE000EDFC)
T2B04 002:964.228   CPU_WriteMem(4 bytes @ 0xE000EDFC)
T2B04 002:965.003   CPU_ReadMem(4 bytes @ 0xE0001000)
T2B04 002:965.662   CPU_WriteMem(4 bytes @ 0xE0001000)
T2B04 002:966.432   CPU_ReadMem(4 bytes @ 0xE000ED88)
T2B04 002:967.038   CPU_WriteMem(4 bytes @ 0xE000ED88)
T2B04 002:967.544   CPU_ReadMem(4 bytes @ 0xE000ED88)
T2B04 002:968.194   CPU_WriteMem(4 bytes @ 0xE000ED88)
T2B04 002:970.372   CoreSight components:
T2B04 002:971.794   ROMTbl[0] @ E00FF000
T2B04 002:971.820   CPU_ReadMem(64 bytes @ 0xE00FF000)
T2B04 002:972.804   CPU_ReadMem(32 bytes @ 0xE000EFE0)
T2B04 002:975.674   [0][0]: E000E000 CID B105E00D PID 000BB00C SCS-M7
T2B04 002:975.840   CPU_ReadMem(32 bytes @ 0xE0001FE0)
T2B04 002:979.378   [0][1]: E0001000 CID B105E00D PID 003BB002 DWT
T2B04 002:979.397   CPU_ReadMem(32 bytes @ 0xE0002FE0)
T2B04 002:981.854   [0][2]: E0002000 CID B105E00D PID 002BB003 FPB
T2B04 002:981.869   CPU_ReadMem(32 bytes @ 0xE0000FE0)
T2B04 002:984.186   [0][3]: E0000000 CID B105E00D PID 003BB001 ITM
T2B04 002:984.199   CPU_ReadMem(32 bytes @ 0xE0040FE0)
T2B04 002:986.503   [0][4]: E0040000 CID B105900D PID 000BB9A1 TPIU
T2B04 002:987.332 - 2897.900ms returns 0x2BA01477
T2B04 002:987.351 JLINK_GetDLLVersion()
T2B04 002:987.356 - 0.006ms returns 78200
T2B04 002:987.361 JLINK_CORE_GetFound()
T2B04 002:987.365 - 0.006ms returns 0xE0000FF
T2B04 002:987.369 JLINK_GetDebugInfo(0x100 = JLINKARM_ROM_TABLE_ADDR_INDEX)
T2B04 002:987.378   Value=0xE00FF000
T2B04 002:987.383 - 0.015ms returns 0
T2B04 002:989.200 JLINK_GetDebugInfo(0x100 = JLINKARM_ROM_TABLE_ADDR_INDEX)
T2B04 002:989.211   Value=0xE00FF000
T2B04 002:989.217 - 0.019ms returns 0
T2B04 002:989.222 JLINK_GetDebugInfo(0x101 = JLINKARM_DEBUG_INFO_ETM_ADDR_INDEX)
T2B04 002:989.226   Value=0x00000000
T2B04 002:989.231 - 0.011ms returns 0
T2B04 002:989.239 JLINK_ReadMemEx(0xE0041FF0, 0x10 Bytes, Flags = 0x02000004)
T2B04 002:989.258   CPU_ReadMem(16 bytes @ 0xE0041FF0)
T2B04 002:990.186   Data:  00 00 00 00 00 00 00 00 00 00 00 00 00 00 00 00
T2B04 002:990.198 - 0.961ms returns 16 (0x10)
T2B04 002:990.205 JLINK_GetDebugInfo(0x102 = JLINKARM_DEBUG_INFO_MTB_ADDR_INDEX)
T2B04 002:990.211   Value=0x00000000
T2B04 002:990.217 - 0.013ms returns 0
T2B04 002:990.222 JLINK_GetDebugInfo(0x103 = JLINKARM_DEBUG_INFO_TPIU_ADDR_INDEX)
T2B04 002:990.227   Value=0xE0040000
T2B04 002:990.233 - 0.013ms returns 0
T2B04 002:990.238 JLINK_GetDebugInfo(0x104 = JLINKARM_DEBUG_INFO_ITM_ADDR_INDEX)
T2B04 002:990.242   Value=0xE0000000
T2B04 002:990.249 - 0.012ms returns 0
T2B04 002:990.254 JLINK_GetDebugInfo(0x105 = JLINKARM_DEBUG_INFO_DWT_ADDR_INDEX)
T2B04 002:990.258   Value=0xE0001000
T2B04 002:990.265 - 0.012ms returns 0
T2B04 002:990.270 JLINK_GetDebugInfo(0x106 = JLINKARM_DEBUG_INFO_FPB_ADDR_INDEX)
T2B04 002:990.274   Value=0xE0002000
T2B04 002:990.280 - 0.012ms returns 0
T2B04 002:990.285 JLINK_GetDebugInfo(0x107 = JLINKARM_DEBUG_INFO_NVIC_ADDR_INDEX)
T2B04 002:990.290   Value=0xE000E000
T2B04 002:990.296 - 0.012ms returns 0
T2B04 002:990.301 JLINK_GetDebugInfo(0x10C = JLINKARM_DEBUG_INFO_DBG_ADDR_INDEX)
T2B04 002:990.306   Value=0xE000EDF0
T2B04 002:990.312 - 0.012ms returns 0
T2B04 002:990.317 JLINK_GetDebugInfo(0x01 = Unknown)
T2B04 002:990.322   Value=0x00000001
T2B04 002:990.329 - 0.013ms returns 0
T2B04 002:990.334 JLINK_ReadMemU32(0xE000ED00, 0x1 Items)
T2B04 002:990.343   CPU_ReadMem(4 bytes @ 0xE000ED00)
T2B04 002:990.984   Data:  41 C2 0F 41
T2B04 002:991.002   Debug reg: CPUID
T2B04 002:991.009 - 0.677ms returns 1 (0x1)
T2B04 002:991.017 JLINK_GetDebugInfo(0x10F = JLINKARM_DEBUG_INFO_HAS_CORTEX_M_SECURITY_EXT_INDEX)
T2B04 002:991.023   Value=0x00000000
T2B04 002:991.030 - 0.014ms returns 0
T2B04 002:991.037 JLINK_HasError()
T2B04 002:991.045 JLINK_SetResetType(JLINKARM_CM3_RESET_TYPE_RESETPIN)
T2B04 002:991.051 - 0.008ms returns JLINKARM_CM3_RESET_TYPE_NORMAL
T2B04 002:991.057 JLINK_Reset()
T2B04 002:993.822   CPU_ReadMem(16 bytes @ 0x20000000)
T2B04 002:994.734   CPU_WriteMem(16 bytes @ 0x20000000)
T2B04 002:995.593   CPU_ReadMem(4 bytes @ 0xE000EDFC)
T2B04 002:996.339   CPU_WriteMem(4 bytes @ 0xE000EDFC)
T2B04 002:997.008   CPU_ReadMem(4 bytes @ 0xE0001000)
T2B04 003:012.853   CPU_WriteMem(4 bytes @ 0xE000EDFC)
T2B04 003:013.593   CPU_WriteMem(16 bytes @ 0x20000000)
T2B04 003:016.731   CPU_WriteMem(4 bytes @ 0xE0002000)
T2B04 003:017.393   CPU_ReadMem(4 bytes @ 0xE000EDFC)
T2B04 003:018.004   CPU_ReadMem(4 bytes @ 0xE0001000)
T2B04 003:018.571 - 27.524ms
T2B04 003:018.594 JLINK_Halt()
T2B04 003:018.601 - 0.010ms returns 0x00
T2B04 003:018.717 JLINK_ReadMemU32(0xE000EDF0, 0x1 Items)
T2B04 003:018.741   CPU_ReadMem(4 bytes @ 0xE000EDF0)
T2B04 003:019.554   Data:  0B 00 03 00
T2B04 003:019.567   Debug reg: DHCSR
T2B04 003:019.574 - 0.859ms returns 1 (0x1)
T2B04 003:019.587 JLINK_WriteU32_64(0xE000EDF0, 0xA05F0003)
T2B04 003:019.593   Debug reg: DHCSR
T2B04 003:019.826   CPU_WriteMem(4 bytes @ 0xE000EDF0)
T2B04 003:020.661 - 1.082ms returns 0 (0x00000000)
T2B04 003:020.674 JLINK_WriteU32_64(0xE000EDFC, 0x01000000)
T2B04 003:020.679   Debug reg: DEMCR
T2B04 003:020.691   CPU_WriteMem(4 bytes @ 0xE000EDFC)
T2B04 003:021.396 - 0.730ms returns 0 (0x00000000)
T2B04 003:036.052 JLINK_GetHWStatus(...)
T2B04 003:036.667 - 0.627ms returns 0
T2B04 003:040.399 JLINK_GetNumBPUnits(Type = 0xFFFFFF00)
T2B04 003:040.413 - 0.016ms returns 0x06
T2B04 003:040.419 JLINK_GetNumBPUnits(Type = 0xF0)
T2B04 003:040.424 - 0.006ms returns 0x2000
T2B04 003:040.429 JLINK_GetNumWPUnits()
T2B04 003:040.433 - 0.006ms returns 4
T2B04 003:045.917 JLINK_GetSpeed()
T2B04 003:046.010 - 0.096ms returns 5000
T2B04 003:048.961 JLINK_ReadMemU32(0xE000E004, 0x1 Items)
T2B04 003:048.994   CPU_ReadMem(4 bytes @ 0xE000E004)
T2B04 003:049.795   Data:  01 00 00 00
T2B04 003:049.806 - 0.847ms returns 1 (0x1)
T2B04 003:049.813 JLINK_ReadMemU32(0xE000E004, 0x1 Items)
T2B04 003:049.820   CPU_ReadMem(4 bytes @ 0xE000E004)
T2B04 003:050.599   Data:  01 00 00 00
T2B04 003:050.605 - 0.794ms returns 1 (0x1)
T2B04 003:050.611 JLINK_WriteMemEx(0xE0001000, 0x0000001C Bytes, Flags = 0x02000004)
T2B04 003:050.615   Data:  01 00 00 00 00 00 00 00 00 00 00 00 00 00 00 00 ...
T2B04 003:050.633   CPU_WriteMem(28 bytes @ 0xE0001000)
T2B04 003:051.608 - 0.999ms returns 0x1C
T2B04 003:051.617 JLINK_Halt()
T2B04 003:051.621 - 0.006ms returns 0x00
T2B04 003:051.625 JLINK_IsHalted()
T2B04 003:051.630 - 0.006ms returns TRUE
T2B04 003:053.042 JLINK_WriteMem(0x20000000, 0x1B8 Bytes, ...)
T2B04 003:053.049   Data:  00 BE 0A E0 0D 78 2D 06 68 40 08 24 40 00 00 D3 ...
T2B04 003:053.240   CPU_WriteMem(440 bytes @ 0x20000000)
T2B04 003:056.043 - 3.007ms returns 0x1B8
T2B04 003:056.080 JLINK_HasError()
T2B04 003:056.087 JLINK_WriteReg(R0, 0x00400000)
T2B04 003:056.097 - 0.012ms returns 0
T2B04 003:056.102 JLINK_WriteReg(R1, 0x00B71B00)
T2B04 003:056.106 - 0.006ms returns 0
T2B04 003:056.111 JLINK_WriteReg(R2, 0x00000001)
T2B04 003:056.115 - 0.006ms returns 0
T2B04 003:056.119 JLINK_WriteReg(R3, 0x00000000)
T2B04 003:056.125 - 0.008ms returns 0
T2B04 003:056.131 JLINK_WriteReg(R4, 0x00000000)
T2B04 003:056.135 - 0.006ms returns 0
T2B04 003:056.140 JLINK_WriteReg(R5, 0x00000000)
T2B04 003:056.145 - 0.006ms returns 0
T2B04 003:056.150 JLINK_WriteReg(R6, 0x00000000)
T2B04 003:056.155 - 0.006ms returns 0
T2B04 003:056.160 JLINK_WriteReg(R7, 0x00000000)
T2B04 003:056.164 - 0.006ms returns 0
T2B04 003:056.169 JLINK_WriteReg(R8, 0x00000000)
T2B04 003:056.177 - 0.009ms returns 0
T2B04 003:056.182 JLINK_WriteReg(R9, 0x200001B0)
T2B04 003:056.186 - 0.006ms returns 0
T2B04 003:056.192 JLINK_WriteReg(R10, 0x00000000)
T2B04 003:056.196 - 0.006ms returns 0
T2B04 003:056.201 JLINK_WriteReg(R11, 0x00000000)
T2B04 003:056.206 - 0.006ms returns 0
T2B04 003:056.211 JLINK_WriteReg(R12, 0x00000000)
T2B04 003:056.215 - 0.006ms returns 0
T2B04 003:056.221 JLINK_WriteReg(R13 (SP), 0x20001000)
T2B04 003:056.226 - 0.007ms returns 0
T2B04 003:056.231 JLINK_WriteReg(R14, 0x20000001)
T2B04 003:056.237 - 0.008ms returns 0
T2B04 003:056.242 JLINK_WriteReg(R15 (PC), 0x20000038)
T2B04 003:056.248 - 0.008ms returns 0
T2B04 003:056.253 JLINK_WriteReg(XPSR, 0x01000000)
T2B04 003:056.258 - 0.006ms returns 0
T2B04 003:056.263 JLINK_WriteReg(MSP, 0x20001000)
T2B04 003:056.267 - 0.006ms returns 0
T2B04 003:056.273 JLINK_WriteReg(PSP, 0x20001000)
T2B04 003:056.277 - 0.006ms returns 0
T2B04 003:056.285 JLINK_WriteReg(CFBP, 0x00000000)
T2B04 003:056.291 - 0.008ms returns 0
T2B04 003:056.297 JLINK_SetBPEx(Addr = 0x20000000, Type = 0xFFFFFFF2)
T2B04 003:056.304   CPU_ReadMem(2 bytes @ 0x20000000)
T2B04 003:057.090 - 0.802ms returns 0x00000001
T2B04 003:057.104 JLINK_Go()
T2B04 003:057.128   CPU_WriteMem(2 bytes @ 0x20000000)
T2B04 003:057.778   CPU_ReadMem(4 bytes @ 0xE0001000)
T2B04 003:058.567   CPU_WriteMem(4 bytes @ 0xE0002008)
T2B04 003:058.604   CPU_WriteMem(4 bytes @ 0xE000200C)
T2B04 003:058.612   CPU_WriteMem(4 bytes @ 0xE0002010)
T2B04 003:058.619   CPU_WriteMem(4 bytes @ 0xE0002014)
T2B04 003:058.626   CPU_WriteMem(4 bytes @ 0xE0002018)
T2B04 003:058.632   CPU_WriteMem(4 bytes @ 0xE000201C)
T2B04 003:060.140   CPU_WriteMem(4 bytes @ 0xE0001004)
T2B04 003:063.497 - 6.406ms
T2B04 003:063.518 JLINK_IsHalted()
T2B04 003:066.124   CPU_ReadMem(2 bytes @ 0x20000000)
T2B04 003:066.736 - 3.221ms returns TRUE
T2B04 003:066.744 JLINK_ReadReg(R15 (PC))
T2B04 003:066.751 - 0.009ms returns 0x20000000
T2B04 003:066.757 JLINK_ClrBPEx(BPHandle = 0x00000001)
T2B04 003:066.762 - 0.007ms returns 0x00
T2B04 003:066.767 JLINK_ReadReg(R0)
T2B04 003:066.772 - 0.007ms returns 0x00000000
T2B04 003:067.034 JLINK_HasError()
T2B04 003:067.042 JLINK_WriteReg(R0, 0x00400000)
T2B04 003:067.048 - 0.008ms returns 0
T2B04 003:067.052 JLINK_WriteReg(R1, 0x00B71B00)
T2B04 003:067.056 - 0.006ms returns 0
T2B04 003:067.061 JLINK_WriteReg(R2, 0x00000001)
T2B04 003:067.065 - 0.005ms returns 0
T2B04 003:067.069 JLINK_WriteReg(R3, 0x00000000)
T2B04 003:067.073 - 0.006ms returns 0
T2B04 003:067.078 JLINK_WriteReg(R4, 0x00000000)
T2B04 003:067.082 - 0.005ms returns 0
T2B04 003:067.086 JLINK_WriteReg(R5, 0x00000000)
T2B04 003:067.090 - 0.005ms returns 0
T2B04 003:067.095 JLINK_WriteReg(R6, 0x00000000)
T2B04 003:067.099 - 0.005ms returns 0
T2B04 003:067.103 JLINK_WriteReg(R7, 0x00000000)
T2B04 003:067.107 - 0.005ms returns 0
T2B04 003:067.111 JLINK_WriteReg(R8, 0x00000000)
T2B04 003:067.116 - 0.006ms returns 0
T2B04 003:067.120 JLINK_WriteReg(R9, 0x200001B0)
T2B04 003:067.124 - 0.005ms returns 0
T2B04 003:067.128 JLINK_WriteReg(R10, 0x00000000)
T2B04 003:067.132 - 0.005ms returns 0
T2B04 003:067.137 JLINK_WriteReg(R11, 0x00000000)
T2B04 003:067.141 - 0.005ms returns 0
T2B04 003:067.145 JLINK_WriteReg(R12, 0x00000000)
T2B04 003:067.149 - 0.005ms returns 0
T2B04 003:067.154 JLINK_WriteReg(R13 (SP), 0x20001000)
T2B04 003:067.158 - 0.006ms returns 0
T2B04 003:067.163 JLINK_WriteReg(R14, 0x20000001)
T2B04 003:067.167 - 0.006ms returns 0
T2B04 003:067.171 JLINK_WriteReg(R15 (PC), 0x20000102)
T2B04 003:067.175 - 0.006ms returns 0
T2B04 003:067.180 JLINK_WriteReg(XPSR, 0x01000000)
T2B04 003:067.184 - 0.005ms returns 0
T2B04 003:067.188 JLINK_WriteReg(MSP, 0x20001000)
T2B04 003:067.192 - 0.005ms returns 0
T2B04 003:067.197 JLINK_WriteReg(PSP, 0x20001000)
T2B04 003:067.201 - 0.005ms returns 0
T2B04 003:067.205 JLINK_WriteReg(CFBP, 0x00000000)
T2B04 003:067.209 - 0.006ms returns 0
T2B04 003:067.214 JLINK_SetBPEx(Addr = 0x20000000, Type = 0xFFFFFFF2)
T2B04 003:067.219 - 0.007ms returns 0x00000002
T2B04 003:067.224 JLINK_Go()
T2B04 003:067.232   CPU_ReadMem(4 bytes @ 0xE0001000)
T2B04 003:070.462 - 3.254ms
T2B04 003:070.491 JLINK_IsHalted()
T2B04 003:071.081 - 0.597ms returns FALSE
T2B04 003:071.097 JLINK_HasError()
T2B04 003:189.441 JLINK_IsHalted()
T2B04 003:190.447 - 1.015ms returns FALSE
T2B04 003:190.463 JLINK_HasError()
T2B04 003:194.342 JLINK_IsHalted()
T2B04 003:195.502 - 1.186ms returns FALSE
T2B04 003:195.537 JLINK_HasError()
T2B04 003:197.512 JLINK_IsHalted()
T2B04 003:198.445 - 0.943ms returns FALSE
T2B04 003:198.462 JLINK_HasError()
T2B04 003:202.428 JLINK_IsHalted()
T2B04 003:203.286 - 0.905ms returns FALSE
T2B04 003:203.338 JLINK_HasError()
T2B04 003:205.419 JLINK_IsHalted()
T2B04 003:206.129 - 0.717ms returns FALSE
T2B04 003:206.143 JLINK_HasError()
T2B04 003:209.311 JLINK_IsHalted()
T2B04 003:210.226 - 0.917ms returns FALSE
T2B04 003:210.232 JLINK_HasError()
T2B04 003:212.292 JLINK_IsHalted()
T2B04 003:213.168 - 0.881ms returns FALSE
T2B04 003:213.177 JLINK_HasError()
T2B04 003:215.188 JLINK_IsHalted()
T2B04 003:216.038 - 0.853ms returns FALSE
T2B04 003:216.044 JLINK_HasError()
T2B04 003:218.191 JLINK_IsHalted()
T2B04 003:219.117 - 0.934ms returns FALSE
T2B04 003:219.130 JLINK_HasError()
T2B04 003:220.227 JLINK_IsHalted()
T2B04 003:221.158 - 0.942ms returns FALSE
T2B04 003:221.176 JLINK_HasError()
T2B04 003:224.136 JLINK_IsHalted()
T2B04 003:224.863 - 0.735ms returns FALSE
T2B04 003:224.878 JLINK_HasError()
T2B04 003:226.395 JLINK_IsHalted()
T2B04 003:227.507 - 1.139ms returns FALSE
T2B04 003:227.543 JLINK_HasError()
T2B04 003:229.491 JLINK_IsHalted()
T2B04 003:230.512 - 1.028ms returns FALSE
T2B04 003:230.523 JLINK_HasError()
T2B04 003:235.348 JLINK_IsHalted()
T2B04 003:236.344 - 1.007ms returns FALSE
T2B04 003:236.364 JLINK_HasError()
T2B04 003:241.496 JLINK_IsHalted()
T2B04 003:242.485 - 1.002ms returns FALSE
T2B04 003:242.507 JLINK_HasError()
T2B04 003:243.606 JLINK_IsHalted()
T2B04 003:244.606 - 1.017ms returns FALSE
T2B04 003:244.633 JLINK_HasError()
T2B04 003:248.974 JLINK_IsHalted()
T2B04 003:250.521 - 1.559ms returns FALSE
T2B04 003:250.545 JLINK_HasError()
T2B04 003:251.623 JLINK_IsHalted()
T2B04 003:252.587 - 0.980ms returns FALSE
T2B04 003:252.613 JLINK_HasError()
T2B04 003:256.457 JLINK_IsHalted()
T2B04 003:257.518 - 1.072ms returns FALSE
T2B04 003:257.536 JLINK_HasError()
T2B04 003:259.646 JLINK_IsHalted()
T2B04 003:260.552 - 0.923ms returns FALSE
T2B04 003:260.578 JLINK_HasError()
T2B04 003:264.600 JLINK_IsHalted()
T2B04 003:265.663 - 1.073ms returns FALSE
T2B04 003:265.681 JLINK_HasError()
T2B04 003:266.780 JLINK_IsHalted()
T2B04 003:267.672 - 0.903ms returns FALSE
T2B04 003:267.690 JLINK_HasError()
T2B04 003:272.215 JLINK_IsHalted()
T2B04 003:273.269 - 1.061ms returns FALSE
T2B04 003:273.282 JLINK_HasError()
T2B04 003:274.714 JLINK_IsHalted()
T2B04 003:275.704 - 0.997ms returns FALSE
T2B04 003:275.720 JLINK_HasError()
T2B04 003:277.792 JLINK_IsHalted()
T2B04 003:278.805 - 1.022ms returns FALSE
T2B04 003:278.820 JLINK_HasError()
T2B04 003:283.400 JLINK_IsHalted()
T2B04 003:284.415 - 1.028ms returns FALSE
T2B04 003:284.438 JLINK_HasError()
T2B04 003:289.113 JLINK_IsHalted()
T2B04 003:290.137 - 1.033ms returns FALSE
T2B04 003:290.151 JLINK_HasError()
T2B04 003:292.221 JLINK_IsHalted()
T2B04 003:293.394 - 1.182ms returns FALSE
T2B04 003:293.409 JLINK_HasError()
T2B04 003:297.539 JLINK_IsHalted()
T2B04 003:298.441 - 0.910ms returns FALSE
T2B04 003:298.454 JLINK_HasError()
T2B04 003:302.007 JLINK_IsHalted()
T2B04 003:303.097 - 1.116ms returns FALSE
T2B04 003:303.132 JLINK_HasError()
T2B04 003:304.207 JLINK_IsHalted()
T2B04 003:305.183 - 0.990ms returns FALSE
T2B04 003:305.207 JLINK_HasError()
T2B04 003:306.287 JLINK_IsHalted()
T2B04 003:307.348 - 1.077ms returns FALSE
T2B04 003:307.375 JLINK_HasError()
T2B04 003:310.929 JLINK_IsHalted()
T2B04 003:311.936 - 1.019ms returns FALSE
T2B04 003:311.958 JLINK_HasError()
T2B04 003:313.720 JLINK_IsHalted()
T2B04 003:314.702 - 0.994ms returns FALSE
T2B04 003:314.723 JLINK_HasError()
T2B04 003:316.384 JLINK_IsHalted()
T2B04 003:317.341 - 0.977ms returns FALSE
T2B04 003:317.371 JLINK_HasError()
T2B04 003:321.543 JLINK_IsHalted()
T2B04 003:322.567 - 1.037ms returns FALSE
T2B04 003:322.589 JLINK_HasError()
T2B04 003:323.657 JLINK_IsHalted()
T2B04 003:324.628 - 0.988ms returns FALSE
T2B04 003:324.655 JLINK_HasError()
T2B04 003:326.356 JLINK_IsHalted()
T2B04 003:327.466 - 1.123ms returns FALSE
T2B04 003:327.488 JLINK_HasError()
T2B04 003:331.655 JLINK_IsHalted()
T2B04 003:332.616 - 0.978ms returns FALSE
T2B04 003:332.643 JLINK_HasError()
T2B04 003:335.860 JLINK_IsHalted()
T2B04 003:336.811 - 0.961ms returns FALSE
T2B04 003:336.828 JLINK_HasError()
T2B04 003:337.925 JLINK_IsHalted()
T2B04 003:338.949 - 1.032ms returns FALSE
T2B04 003:338.964 JLINK_HasError()
T2B04 003:340.034 JLINK_IsHalted()
T2B04 003:340.969 - 0.954ms returns FALSE
T2B04 003:341.000 JLINK_HasError()
T2B04 003:344.716 JLINK_IsHalted()
T2B04 003:345.745 - 1.038ms returns FALSE
T2B04 003:345.760 JLINK_HasError()
T2B04 003:348.620 JLINK_IsHalted()
T2B04 003:349.438 - 0.825ms returns FALSE
T2B04 003:349.451 JLINK_HasError()
T2B04 003:352.300 JLINK_IsHalted()
T2B04 003:352.871 - 0.576ms returns FALSE
T2B04 003:352.881 JLINK_HasError()
T2B04 003:354.316 JLINK_IsHalted()
T2B04 003:354.930 - 0.617ms returns FALSE
T2B04 003:354.937 JLINK_HasError()
T2B04 003:356.286 JLINK_IsHalted()
T2B04 003:356.867 - 0.585ms returns FALSE
T2B04 003:356.875 JLINK_HasError()
T2B04 003:358.278 JLINK_IsHalted()
T2B04 003:358.839 - 0.570ms returns FALSE
T2B04 003:358.854 JLINK_HasError()
T2B04 003:361.269 JLINK_IsHalted()
T2B04 003:361.851 - 0.595ms returns FALSE
T2B04 003:361.871 JLINK_HasError()
T2B04 003:363.263 JLINK_IsHalted()
T2B04 003:363.834 - 0.574ms returns FALSE
T2B04 003:363.842 JLINK_HasError()
T2B04 003:365.254 JLINK_IsHalted()
T2B04 003:365.831 - 0.580ms returns FALSE
T2B04 003:365.839 JLINK_HasError()
T2B04 003:367.169 JLINK_IsHalted()
T2B04 003:367.799 - 0.640ms returns FALSE
T2B04 003:367.814 JLINK_HasError()
T2B04 003:370.680 JLINK_IsHalted()
T2B04 003:371.355 - 0.677ms returns FALSE
T2B04 003:371.362 JLINK_HasError()
T2B04 003:372.696 JLINK_IsHalted()
T2B04 003:373.588 - 0.894ms returns FALSE
T2B04 003:373.594 JLINK_HasError()
T2B04 003:375.316 JLINK_IsHalted()
T2B04 003:376.221 - 0.909ms returns FALSE
T2B04 003:376.229 JLINK_HasError()
T2B04 003:379.404 JLINK_IsHalted()
T2B04 003:380.257 - 0.858ms returns FALSE
T2B04 003:380.266 JLINK_HasError()
T2B04 003:382.261 JLINK_IsHalted()
T2B04 003:383.077 - 0.821ms returns FALSE
T2B04 003:383.085 JLINK_HasError()
T2B04 003:385.309 JLINK_IsHalted()
T2B04 003:386.272 - 0.966ms returns FALSE
T2B04 003:386.278 JLINK_HasError()
T2B04 003:388.348 JLINK_IsHalted()
T2B04 003:389.339 - 0.998ms returns FALSE
T2B04 003:389.352 JLINK_HasError()
T2B04 003:391.341 JLINK_IsHalted()
T2B04 003:392.157 - 0.831ms returns FALSE
T2B04 003:392.183 JLINK_HasError()
T2B04 003:395.975 JLINK_IsHalted()
T2B04 003:396.950 - 0.984ms returns FALSE
T2B04 003:396.966 JLINK_HasError()
T2B04 003:398.042 JLINK_IsHalted()
T2B04 003:399.051 - 1.018ms returns FALSE
T2B04 003:399.065 JLINK_HasError()
T2B04 003:401.143 JLINK_IsHalted()
T2B04 003:402.180 - 1.046ms returns FALSE
T2B04 003:402.194 JLINK_HasError()
T2B04 003:406.413 JLINK_IsHalted()
T2B04 003:407.434 - 1.036ms returns FALSE
T2B04 003:407.460 JLINK_HasError()
T2B04 003:409.556 JLINK_IsHalted()
T2B04 003:410.621 - 1.081ms returns FALSE
T2B04 003:410.648 JLINK_HasError()
T2B04 003:414.621 JLINK_IsHalted()
T2B04 003:415.635 - 1.030ms returns FALSE
T2B04 003:415.662 JLINK_HasError()
T2B04 003:417.719 JLINK_IsHalted()
T2B04 003:418.691 - 0.986ms returns FALSE
T2B04 003:418.714 JLINK_HasError()
T2B04 003:422.844 JLINK_IsHalted()
T2B04 003:423.785 - 0.956ms returns FALSE
T2B04 003:423.810 JLINK_HasError()
T2B04 003:431.095 JLINK_IsHalted()
T2B04 003:432.056 - 0.970ms returns FALSE
T2B04 003:432.071 JLINK_HasError()
T2B04 003:434.073 JLINK_IsHalted()
T2B04 003:435.067 - 1.027ms returns FALSE
T2B04 003:435.106 JLINK_HasError()
T2B04 003:438.789 JLINK_IsHalted()
T2B04 003:439.718 - 0.954ms returns FALSE
T2B04 003:439.753 JLINK_HasError()
T2B04 003:441.697 JLINK_IsHalted()
T2B04 003:442.495 - 0.806ms returns FALSE
T2B04 003:442.509 JLINK_HasError()
T2B04 003:444.733 JLINK_IsHalted()
T2B04 003:445.527 - 0.802ms returns FALSE
T2B04 003:445.534 JLINK_HasError()
T2B04 003:446.621 JLINK_IsHalted()
T2B04 003:447.414 - 0.795ms returns FALSE
T2B04 003:447.420 JLINK_HasError()
T2B04 003:448.609 JLINK_IsHalted()
T2B04 003:449.418 - 0.811ms returns FALSE
T2B04 003:449.424 JLINK_HasError()
T2B04 003:451.518 JLINK_IsHalted()
T2B04 003:452.527 - 1.017ms returns FALSE
T2B04 003:452.540 JLINK_HasError()
T2B04 003:456.995 JLINK_IsHalted()
T2B04 003:457.864 - 0.872ms returns FALSE
T2B04 003:457.871 JLINK_HasError()
T2B04 003:458.972 JLINK_IsHalted()
T2B04 003:459.902 - 0.936ms returns FALSE
T2B04 003:459.916 JLINK_HasError()
T2B04 003:462.934 JLINK_IsHalted()
T2B04 003:463.777 - 0.846ms returns FALSE
T2B04 003:463.783 JLINK_HasError()
T2B04 003:465.913 JLINK_IsHalted()
T2B04 003:466.891 - 0.999ms returns FALSE
T2B04 003:466.924 JLINK_HasError()
T2B04 003:471.139 JLINK_IsHalted()
T2B04 003:472.480 - 1.364ms returns FALSE
